Element, I1_1, Ang1_1, I1_2, Ang1_2, I1_3, Ang1_3, I1_4, Ang1_4, Iresid1, AngResid1, I2_1, Ang2_1, I2_2, Ang2_2, I2_3, Ang2_3, I2_4, Ang2_4, Iresid2, AngResid2
Vsource.SOURCE,    17.9754,   179.10,    19.7461,    71.35,    22.2842,   -58.46,          0,     0.00, 3.63798E-11,    90.00,    17.9754,    -0.90,    19.7461,  -108.65,    22.2842,   121.54,          0,     0.00, 3.63798E-11,   -90.00
Transformer.SUB,    17.9754,    -0.90,    19.7461,  -108.65,    22.2842,   121.54,          0,     0.00, 6.50781E-11,    26.57,    594.248,   151.30,    434.749,    38.70,    625.101,   -86.61,    159.709,    24.76, 7.45422E-9,  -165.53
Transformer.REG1,    594.248,   -28.70,    594.248,   151.30,          0,     0.00,          0,     0.00, 0.000347309,   -90.01,    562.601,   151.30,    562.601,   -28.70,          0,     0.00,          0,     0.00, 0.000366803,   -90.01
Transformer.REG2,    434.749,  -141.30,    434.748,    38.70,          0,     0.00,          0,     0.00, 0.00034733,   149.99,    419.034,    38.70,    419.035,  -141.30,          0,     0.00,          0,     0.00, 0.000360326,   149.99
Transformer.REG3,    625.101,    93.39,    625.101,   -86.61,          0,     0.00,          0,     0.00, 0.000347316,    29.99,    591.811,   -86.61,    591.811,    93.39,          0,     0.00,          0,     0.00, 0.000366809,    29.98
Transformer.XFM1,    81.8957,   -37.79,    61.9313,  -159.14,     63.578,    80.40,    19.8913,   151.33, 1.12509E-6,  -175.58,    709.762,   142.21,    536.737,    20.86,    551.009,   -99.60,    172.392,   -28.67, 0.0000108176,   175.18
Capacitor.CAP1,    81.2957,    84.38,    86.8218,   -32.57,    80.1852,  -154.00,          0,     0.00,    9.12088,    -6.20,    81.2957,   -95.62,    86.8218,   147.43,    80.1852,    26.00,          0,     0.00,    9.12088,   173.80
Capacitor.CAP2,    40.0639,  -154.26,          0,     0.00,          0,     0.00,          0,     0.00,    40.0639,  -154.26,    40.0639,    25.74,          0,     0.00,          0,     0.00,          0,     0.00,    40.0639,    25.74
Line.650632,    562.601,   -28.70,    419.034,  -141.30,    591.811,    93.39,          0,     0.00,    143.995,    24.04,    562.602,   151.30,    419.035,    38.70,    591.812,   -86.61,          0,     0.00,    143.995,  -155.96
Line.632670,    481.909,   -27.16,    218.056,  -135.23,    480.327,    99.58,          0,     0.00,     218.38,    27.29,     481.91,   152.84,    218.056,    44.77,    480.327,   -80.42,          0,     0.00,     218.38,  -152.71
Line.670671,    473.788,   -27.04,    188.825,  -132.55,    424.954,   101.26,          0,     0.00,    220.349,    16.42,    473.789,   152.96,    188.825,    47.45,    424.954,   -78.74,          0,     0.00,    220.349,  -163.58
Line.671680, 0.000572301,    85.69, 0.000597531,   -32.92, 0.000572079,  -154.49,          0,     0.00, 0.0000283095,    -0.86, 1.81899E-12,     0.00, 1.01685E-12,  -153.43, 5.75215E-12,  -108.43,          0,     0.00, 5.98127E-12,   -98.75
Line.632633,    81.8955,   -37.79,    61.9311,  -159.14,    63.5778,    80.40,          0,     0.00,    19.8913,   -28.67,    81.8957,   142.21,    61.9313,    20.86,     63.578,   -99.60,          0,     0.00,    19.8913,   151.33
Line.632645,    64.3768,    57.77,    143.308,  -142.94,          0,     0.00,          0,     0.00,    86.1546,  -158.27,     64.377,  -122.23,    143.308,    37.06,          0,     0.00,          0,     0.00,    86.1545,    21.73
Line.645646,     64.377,    57.77,    64.3771,  -122.23,          0,     0.00,          0,     0.00, 0.000113976,   -91.21,    64.3771,  -122.23,    64.3771,    57.77,          0,     0.00,          0,     0.00, 9.00354E-12,   -45.00
Line.692675,    206.846,    -5.54,    68.5079,   -55.92,    125.937,   110.78,          0,     0.00,    203.764,    11.62,    206.846,   174.45,    68.4764,   124.07,     125.94,   -69.24,          0,     0.00,    203.761,  -168.38
Line.671684,    62.6969,   -39.19,    71.1582,   121.16,          0,     0.00,          0,     0.00,    24.3068,    61.04,     62.697,   140.80,    71.1582,   -58.84,          0,     0.00,          0,     0.00,    24.3067,  -118.96
Line.684611,    71.1582,   121.16,          0,     0.00,          0,     0.00,          0,     0.00,    71.1582,   121.16,    71.1582,   -58.84,          0,     0.00,          0,     0.00,          0,     0.00,    71.1582,   -58.84
Line.684652,     62.697,   -39.20,          0,     0.00,          0,     0.00,          0,     0.00,     62.697,   -39.20,    62.7146,   140.78,          0,     0.00,          0,     0.00,          0,     0.00,    62.7146,   140.78
Line.671692,    230.939,   -18.43,    68.5079,   -55.92,     180.33,   108.73,          0,     0.00,    203.764,    11.62,    230.939,   161.57,    68.5079,   124.08,     180.33,   -71.27,          0,     0.00,    203.764,  -168.38
Load.671,    185.389,   -33.66,    185.386,  -153.63,    185.474,    86.36,          0,     0.00,          0,     0.00,          0,     0.00,          0,     0.00,          0,     0.00,          0,     0.00,          0,     0.00
Load.634A,    709.754,   -37.79,    709.754,   142.21,          0,     0.00,          0,     0.00,          0,     0.00,          0,     0.00,          0,     0.00,          0,     0.00,          0,     0.00,          0,     0.00
Load.634B,    536.742,  -159.14,    536.742,    20.86,          0,     0.00,          0,     0.00,          0,     0.00,          0,     0.00,          0,     0.00,          0,     0.00,          0,     0.00,          0,     0.00
Load.634C,    550.975,    80.40,    550.975,   -99.60,          0,     0.00,          0,     0.00,          0,     0.00,          0,     0.00,          0,     0.00,          0,     0.00,          0,     0.00,          0,     0.00
Load.645,    86.1551,  -158.27,    86.1551,    21.73,          0,     0.00,          0,     0.00,          0,     0.00,          0,     0.00,          0,     0.00,          0,     0.00,          0,     0.00,          0,     0.00
Load.646,    64.3765,  -122.23,    64.3765,    57.77,          0,     0.00,          0,     0.00,          0,     0.00,          0,     0.00,          0,     0.00,          0,     0.00,          0,     0.00,          0,     0.00
Load.692,    54.6583,   103.99,    54.6583,   -76.01,          0,     0.00,          0,     0.00,          0,     0.00,          0,     0.00,          0,     0.00,          0,     0.00,          0,     0.00,          0,     0.00
Load.675A,     222.15,   -27.02,     222.15,   152.98,          0,     0.00,          0,     0.00,          0,     0.00,          0,     0.00,          0,     0.00,          0,     0.00,          0,     0.00,          0,     0.00
Load.675B,    36.2136,  -163.99,    36.2136,    16.01,          0,     0.00,          0,     0.00,          0,     0.00,          0,     0.00,          0,     0.00,          0,     0.00,          0,     0.00,          0,     0.00
Load.675C,    155.339,    79.83,    155.339,  -100.17,          0,     0.00,          0,     0.00,          0,     0.00,          0,     0.00,          0,     0.00,          0,     0.00,          0,     0.00,          0,     0.00
Load.611,    78.2846,    90.53,    78.2846,   -89.47,          0,     0.00,          0,     0.00,          0,     0.00,          0,     0.00,          0,     0.00,          0,     0.00,          0,     0.00,          0,     0.00
Load.652,    62.7142,   -39.22,    62.7142,   140.78,          0,     0.00,          0,     0.00,          0,     0.00,          0,     0.00,          0,     0.00,          0,     0.00,          0,     0.00,          0,     0.00
Load.670A,      8.179,   -33.92,      8.179,   146.08,          0,     0.00,          0,     0.00,          0,     0.00,          0,     0.00,          0,     0.00,          0,     0.00,          0,     0.00,          0,     0.00
Load.670B,    30.7293,  -151.90,    30.7293,    28.10,          0,     0.00,          0,     0.00,          0,     0.00,          0,     0.00,          0,     0.00,          0,     0.00,          0,     0.00,          0,     0.00
Load.670C,    56.9316,    86.94,    56.9316,   -93.06,          0,     0.00,          0,     0.00,          0,     0.00,          0,     0.00,          0,     0.00,          0,     0.00,          0,     0.00,          0,     0.00
